
**** 08/23/23 16:39:44 ***** PSpice 22.1.0 (19 March 2023) **** ID# 0 ********

 ** Profile: "SCHEMATIC1-R_sweep"  [ c:\users\chris\documents\spice\miller_op_amp_9994-PSpiceFiles\SCHEMATIC1\R_sweep.sim ] 


 ****     CIRCUIT DESCRIPTION


******************************************************************************




** Creating circuit file "R_sweep.cir" 
** WARNING: THIS AUTOMATICALLY GENERATED FILE MAY BE OVERWRITTEN BY SUBSEQUENT SIMULATIONS

*Libraries: 
* Profile Libraries :
* Local Libraries :
.LIB "../../../miller_op_amp_9994-pspicefiles/miller_op_amp_9994.lib" 
* From [PSPICE NETLIST] section of C:\SPB_DATA\cdssetup\OrCAD_PSpice\22.1.0\PSpice.ini file:
.lib "nom.lib" 

*Analysis directives: 
.TRAN  0 1000ns 0 
.STEP LIN PARAM RVAL 100 110 2 
.OPTIONS ADVCONV
.PROBE64 V(alias(*)) I(alias(*)) W(alias(*)) D(alias(*)) NOISE(alias(*)) 
.INC "..\SCHEMATIC1.net" 



**** INCLUDING SCHEMATIC1.net ****
* source MILLER_OP_AMP_9994
M_M2         N00379 N01412 N00464 N00464 nfet  
+ L=1u  
+ W=7u         
M_M1         N00375 0 N00464 N00464 nfet  
+ L=1u  
+ W=7u         
M_M3         N00375 N00375 N00383 N00383 pfet  
+ L=1u  
+ W=1u         
M_M4         N00379 N00375 N00383 N00383 pfet  
+ L=1u  
+ W=1u         
M_M5         N00464 N00713 N01047 N01047 nfet  
+ L=1u  
+ W=3u         
M_M6         N00569 N00379 N00383 N00383 pfet  
+ L=1u  
+ W=8u         
C_Cc         N00379 N00569  1.4p  TC=0,0 
M_M7         N00569 N00713 N01047 N01047 nfet  
+ L=1u  
+ W=7u         
M_M8         N00713 N00713 N01047 N01047 nfet  
+ L=1u  
+ W=5u         
C_CL         0 N00569  2.94p  TC=0,0 
V_Vss         N01047 0 -2.082Vdc
V_Vdd         N00383 0 2.082Vdc
V_V1         N01412 0 DC 0Vdc AC 0.1Vac 
M_M9         N13700 N00713 N01047 N01047 nfet  
+ L=1u  
+ W=5u         
M_M10         N00713 N13700 N13521 N13521 pfet  
+ L=1u  
+ W=15u         
M_M11         N13700 N13700 N13696 N13696 pfet  
+ L=1u  
+ W=15u         
M_M12         N13521 N13696 N135011 N135011 pfet  
+ L=1u  
+ W=18u         
M_M13         N13696 N13696 N00383 N00383 pfet  
+ L=1u  
+ W=18u         
R_R1         N135011 N00383  {RVAL} TC=0,0 
.PARAM  rval=1k

**** RESUMING R_sweep.cir ****
.END

**** 08/23/23 16:39:44 ***** PSpice 22.1.0 (19 March 2023) **** ID# 0 ********

 ** Profile: "SCHEMATIC1-R_sweep"  [ c:\users\chris\documents\spice\miller_op_amp_9994-PSpiceFiles\SCHEMATIC1\R_sweep.sim ] 


 ****     MOSFET MODEL PARAMETERS


******************************************************************************




               nfet            pfet            
               NMOS            PMOS            
       LEVEL    3               3            
         TPG                   -1            
           L  100.000000E-06  100.000000E-06 
           W  100.000000E-06  100.000000E-06 
          LD  164.700000E-09   22.000000E-09 
         VTO     .786           -.9056       
          KP   96.379000E-06   29.352000E-06 
       GAMMA     .5863           .4863       
         PHI     .6              .6          
      LAMBDA    0               0            
         RSH   85.45          104.7          
          IS   10.000000E-15   10.000000E-15 
          JS    0               0            
          PB     .8              .85         
        PBSW     .8              .85         
          CJ  385.410000E-06  484.470000E-06 
        CJSW  139.400000E-12  164.570000E-12 
          MJ    1.1854           .5027       
        MJSW     .125195         .217168     
        CGSO  402.410000E-12   53.752000E-12 
        CGDO  402.410000E-12   53.752000E-12 
        CGBO  361.440000E-12  336.500000E-12 
        NSUB   16.160000E+15   18.900000E+15 
         NFS    5.000000E+12    3.460000E+12 
         TOX   21.200000E-09   21.200000E-09 
          XJ  200.000000E-09  200.000000E-09 
          UO  591.7           180.2          
       UCRIT   10.000000E+03   10.000000E+03 
        VMAX  208.200000E+03  373.200000E+03 
       DELTA     .6967          1.52         
       THETA     .08122          .1248       
         ETA     .07066          .1641       
       KAPPA     .1396          9.694        
      DIOMOD    1               1            
         VFB    0               0            
        LETA    0               0            
        WETA    0               0            
          U0    0               0            
        TEMP    0               0            
         VDD    5               5            
       XPART    0               0            


**** 08/23/23 16:39:44 ***** PSpice 22.1.0 (19 March 2023) **** ID# 0 ********

 ** Profile: "SCHEMATIC1-R_sweep"  [ c:\users\chris\documents\spice\miller_op_amp_9994-PSpiceFiles\SCHEMATIC1\R_sweep.sim ] 


 ****     INITIAL TRANSIENT SOLUTION       TEMPERATURE =   27.000 DEG C

 ****     CURRENT STEP                     PARAM RVAL =  100   


******************************************************************************



 NODE   VOLTAGE     NODE   VOLTAGE     NODE   VOLTAGE     NODE   VOLTAGE


(N00375)    -.4087 (N00379)    -.4087 (N00383)    2.0820 (N00464)    -.9169     

(N00569)     .7537 (N00713)    -.8835 (N01047)   -2.0820 (N01412)    0.0000     

(N13521)     .6509 (N13696)     .6667 (N13700)    -.8144 (N135011)    2.0718    




    VOLTAGE SOURCE CURRENTS
    NAME         CURRENT

    V_Vss        5.175E-04
    V_Vdd       -5.175E-04
    V_V1         0.000E+00

    TOTAL POWER DISSIPATION   2.15E-03  WATTS


**** 08/23/23 16:39:44 ***** PSpice 22.1.0 (19 March 2023) **** ID# 0 ********

 ** Profile: "SCHEMATIC1-R_sweep"  [ c:\users\chris\documents\spice\miller_op_amp_9994-PSpiceFiles\SCHEMATIC1\R_sweep.sim ] 


 ****     INITIAL TRANSIENT SOLUTION       TEMPERATURE =   27.000 DEG C

 ****     CURRENT STEP                     PARAM RVAL =  102   


******************************************************************************



 NODE   VOLTAGE     NODE   VOLTAGE     NODE   VOLTAGE     NODE   VOLTAGE


(N00375)    -.4075 (N00379)    -.4075 (N00383)    2.0820 (N00464)    -.9166     

(N00569)     .7536 (N00713)    -.8840 (N01047)   -2.0820 (N01412)    0.0000     

(N13521)     .6510 (N13696)     .6671 (N13700)    -.8136 (N135011)    2.0716    




    VOLTAGE SOURCE CURRENTS
    NAME         CURRENT

    V_Vss        5.169E-04
    V_Vdd       -5.169E-04
    V_V1         0.000E+00

    TOTAL POWER DISSIPATION   2.15E-03  WATTS


**** 08/23/23 16:39:44 ***** PSpice 22.1.0 (19 March 2023) **** ID# 0 ********

 ** Profile: "SCHEMATIC1-R_sweep"  [ c:\users\chris\documents\spice\miller_op_amp_9994-PSpiceFiles\SCHEMATIC1\R_sweep.sim ] 


 ****     INITIAL TRANSIENT SOLUTION       TEMPERATURE =   27.000 DEG C

 ****     CURRENT STEP                     PARAM RVAL =  104   


******************************************************************************



 NODE   VOLTAGE     NODE   VOLTAGE     NODE   VOLTAGE     NODE   VOLTAGE


(N00375)    -.4063 (N00379)    -.4063 (N00383)    2.0820 (N00464)    -.9163     

(N00569)     .7535 (N00713)    -.8845 (N01047)   -2.0820 (N01412)    0.0000     

(N13521)     .6511 (N13696)     .6674 (N13700)    -.8128 (N135011)    2.0714    




    VOLTAGE SOURCE CURRENTS
    NAME         CURRENT

    V_Vss        5.162E-04
    V_Vdd       -5.162E-04
    V_V1         0.000E+00

    TOTAL POWER DISSIPATION   2.15E-03  WATTS


**** 08/23/23 16:39:44 ***** PSpice 22.1.0 (19 March 2023) **** ID# 0 ********

 ** Profile: "SCHEMATIC1-R_sweep"  [ c:\users\chris\documents\spice\miller_op_amp_9994-PSpiceFiles\SCHEMATIC1\R_sweep.sim ] 


 ****     INITIAL TRANSIENT SOLUTION       TEMPERATURE =   27.000 DEG C

 ****     CURRENT STEP                     PARAM RVAL =  106   


******************************************************************************



 NODE   VOLTAGE     NODE   VOLTAGE     NODE   VOLTAGE     NODE   VOLTAGE


(N00375)    -.4051 (N00379)    -.4051 (N00383)    2.0820 (N00464)    -.9160     

(N00569)     .7534 (N00713)    -.8850 (N01047)   -2.0820 (N01412)    0.0000     

(N13521)     .6512 (N13696)     .6678 (N13700)    -.8120 (N135011)    2.0712    




    VOLTAGE SOURCE CURRENTS
    NAME         CURRENT

    V_Vss        5.156E-04
    V_Vdd       -5.156E-04
    V_V1         0.000E+00

    TOTAL POWER DISSIPATION   2.15E-03  WATTS


**** 08/23/23 16:39:44 ***** PSpice 22.1.0 (19 March 2023) **** ID# 0 ********

 ** Profile: "SCHEMATIC1-R_sweep"  [ c:\users\chris\documents\spice\miller_op_amp_9994-PSpiceFiles\SCHEMATIC1\R_sweep.sim ] 


 ****     INITIAL TRANSIENT SOLUTION       TEMPERATURE =   27.000 DEG C

 ****     CURRENT STEP                     PARAM RVAL =  108   


******************************************************************************



 NODE   VOLTAGE     NODE   VOLTAGE     NODE   VOLTAGE     NODE   VOLTAGE


(N00375)    -.4039 (N00379)    -.4039 (N00383)    2.0820 (N00464)    -.9157     

(N00569)     .7533 (N00713)    -.8855 (N01047)   -2.0820 (N01412)    0.0000     

(N13521)     .6512 (N13696)     .6682 (N13700)    -.8113 (N135011)    2.0710    




    VOLTAGE SOURCE CURRENTS
    NAME         CURRENT

    V_Vss        5.150E-04
    V_Vdd       -5.150E-04
    V_V1         0.000E+00

    TOTAL POWER DISSIPATION   2.14E-03  WATTS


**** 08/23/23 16:39:44 ***** PSpice 22.1.0 (19 March 2023) **** ID# 0 ********

 ** Profile: "SCHEMATIC1-R_sweep"  [ c:\users\chris\documents\spice\miller_op_amp_9994-PSpiceFiles\SCHEMATIC1\R_sweep.sim ] 


 ****     INITIAL TRANSIENT SOLUTION       TEMPERATURE =   27.000 DEG C

 ****     CURRENT STEP                     PARAM RVAL =  110   


******************************************************************************



 NODE   VOLTAGE     NODE   VOLTAGE     NODE   VOLTAGE     NODE   VOLTAGE


(N00375)    -.4027 (N00379)    -.4027 (N00383)    2.0820 (N00464)    -.9154     

(N00569)     .7533 (N00713)    -.8860 (N01047)   -2.0820 (N01412)    0.0000     

(N13521)     .6513 (N13696)     .6685 (N13700)    -.8105 (N135011)    2.0709    




    VOLTAGE SOURCE CURRENTS
    NAME         CURRENT

    V_Vss        5.144E-04
    V_Vdd       -5.144E-04
    V_V1         0.000E+00

    TOTAL POWER DISSIPATION   2.14E-03  WATTS



          JOB CONCLUDED

**** 08/23/23 16:39:44 ***** PSpice 22.1.0 (19 March 2023) **** ID# 0 ********

 ** Profile: "SCHEMATIC1-R_sweep"  [ c:\users\chris\documents\spice\miller_op_amp_9994-PSpiceFiles\SCHEMATIC1\R_sweep.sim ] 


 ****     JOB STATISTICS SUMMARY

 ****     CURRENT STEP                     PARAM RVAL =  110   


******************************************************************************



  Total job time (using Solver 1)   =         .25
